time	Id(amp:M1)	Id(amp:M2)
Step Information: Temp=-50  (Run: 1/9)
0.000000000000000e+000	-3.278340e-004	3.278317e-004
5.859375484806861e-011	-3.278333e-004	3.278319e-004
2.343750193922745e-010	-3.278345e-004	3.278315e-004
3.750000310276391e-009	-3.278338e-004	3.278317e-004
1.500000124110557e-008	-3.278341e-004	3.278317e-004
3.000000248221113e-008	-3.278382e-004	3.278306e-004
6.000000496442226e-008	-3.278772e-004	3.278113e-004
1.200000099288445e-007	-3.281262e-004	3.276073e-004
2.400000198576890e-007	-3.293860e-004	3.261691e-004
4.800000397153781e-007	-3.350540e-004	3.187750e-004
9.600000794307562e-007	-3.602580e-004	2.908444e-004
1.920000158861512e-006	-4.971484e-004	2.216914e-004
3.840000317723025e-006	-1.228973e-003	1.098861e-004
5.594147436001022e-006	-2.788069e-003	5.729794e-005
7.686692601540084e-006	-5.578839e-003	3.807725e-005
9.891182837399898e-006	-8.411574e-003	3.272905e-005
1.282087033739990e-005	-1.149634e-002	3.072284e-005
1.569217043702106e-005	-1.427935e-002	2.977720e-005
1.862185793702105e-005	-1.708029e-002	2.917750e-005
2.155154543702105e-005	-1.985104e-002	2.877443e-005
2.448123293702105e-005	-2.260481e-002	2.848543e-005
2.741092043702105e-005	-2.534400e-002	2.827026e-005
3.034060793702105e-005	-2.806904e-002	2.810516e-005
3.327029543702105e-005	-3.078023e-002	2.797570e-005
3.619998293702105e-005	-3.347739e-002	2.787205e-005
3.912967043702106e-005	-3.616025e-002	2.778790e-005
4.205935793702106e-005	-3.882825e-002	2.771848e-005
4.498904543702106e-005	-4.148082e-002	2.766070e-005
4.791873293702106e-005	-4.411729e-002	2.761194e-005
5.084842043702107e-005	-4.673693e-002	2.757055e-005
5.670779543702107e-005	-5.192271e-002	2.750428e-005
6.256717043702108e-005	-5.703192e-002	2.745405e-005
7.135623293702108e-005	-6.453817e-002	2.739837e-005
8.014529543702109e-005	-7.183596e-002	2.735782e-005
9.186404543702110e-005	-8.120483e-002	2.731738e-005
1.065124829370211e-004	-9.226508e-002	2.727831e-005
1.270202954370211e-004	-1.063695e-001	2.723100e-005
1.475281079370212e-004	-1.186532e-001	2.718115e-005
1.680359204370212e-004	-1.289077e-001	2.711839e-005
1.885437329370212e-004	-1.369577e-001	2.702712e-005
2.090515454370212e-004	-1.426963e-001	2.689079e-005
2.295593579370212e-004	-1.460803e-001	2.673208e-005
2.442077954370212e-004	-1.470311e-001	2.665595e-005
2.588562329370213e-004	-1.467290e-001	2.665379e-005
2.764343579370213e-004	-1.446711e-001	2.674209e-005
2.969421704370213e-004	-1.399272e-001	2.687932e-005
3.174499829370213e-004	-1.327641e-001	2.697734e-005
3.379577954370213e-004	-1.233605e-001	2.703237e-005
3.584656079370213e-004	-1.118849e-001	2.706607e-005
3.789734204370214e-004	-9.851958e-002	2.709323e-005
3.965515454370214e-004	-8.572396e-002	2.712033e-005
4.082702954370214e-004	-7.658746e-002	2.714593e-005
4.170593579370214e-004	-6.945209e-002	2.717297e-005
4.258484204370214e-004	-6.209876e-002	2.721119e-005
4.317077954370214e-004	-5.708684e-002	2.724610e-005
4.375671704370214e-004	-5.199545e-002	2.729210e-005
4.434265454370214e-004	-4.683199e-002	2.735400e-005
4.463562329370214e-004	-4.422563e-002	2.739312e-005
4.492859204370214e-004	-4.160421e-002	2.743935e-005
4.522156079370214e-004	-3.896875e-002	2.749443e-005
4.551452954370214e-004	-3.632036e-002	2.756065e-005
4.580749829370214e-004	-3.366023e-002	2.764108e-005
4.610046704370214e-004	-3.098961e-002	2.773993e-005
4.639343579370214e-004	-2.830992e-002	2.786314e-005
4.668640454370214e-004	-2.562277e-002	2.801929e-005
4.697937329370214e-004	-2.293010e-002	2.822119e-005
4.727234204370214e-004	-2.023440e-002	2.848880e-005
4.756531079370214e-004	-1.753904e-002	2.885485e-005
4.785827954370215e-004	-1.484909e-002	2.937657e-005
4.815124829370215e-004	-1.217297e-002	3.016322e-005
4.844421704370215e-004	-9.526426e-003	3.145044e-005
4.873718579370215e-004	-6.939957e-003	3.387248e-005
4.903015454370215e-004	-4.490304e-003	3.972622e-005
4.932312329370215e-004	-2.376607e-003	6.507194e-005
4.961609204370215e-004	-8.599420e-004	3.508783e-004
4.983306260306615e-004	-2.620255e-004	2.354910e-003
4.996143458350472e-004	-1.494446e-004	5.540382e-003
5.004514745051344e-004	-1.457154e-004	6.857122e-003
5.010998542939537e-004	-1.465190e-004	6.296682e-003
5.016471723030317e-004	-1.402312e-004	6.711619e-003
5.021279326263642e-004	-1.385752e-004	8.361860e-003
5.026353605582881e-004	-1.435827e-004	9.109315e-003
5.031405502381205e-004	-1.449291e-004	8.454883e-003
5.036623479752625e-004	-1.402693e-004	8.659407e-003
5.042055775512776e-004	-1.388029e-004	1.029860e-002
5.046948305358910e-004	-1.426249e-004	1.095459e-002
5.051971440924262e-004	-1.434664e-004	1.039196e-002
5.057179260122086e-004	-1.394238e-004	1.071949e-002
5.062257013223459e-004	-1.388242e-004	1.217468e-002
5.067491195970149e-004	-1.423735e-004	1.270192e-002
5.072707068779622e-004	-1.421941e-004	1.224795e-002
5.078053917638968e-004	-1.388883e-004	1.290020e-002
5.083624523313124e-004	-1.397227e-004	1.428307e-002
5.089278375655405e-004	-1.420658e-004	1.446438e-002
5.096193134962261e-004	-1.400308e-004	1.451724e-002
5.102631103055793e-004	-1.390739e-004	1.582840e-002
5.108544579894296e-004	-1.415480e-004	1.643077e-002
5.114224605750167e-004	-1.411139e-004	1.619774e-002
5.120132103126426e-004	-1.389772e-004	1.701435e-002
5.127221983224190e-004	-1.406077e-004	1.823082e-002
5.133650708320747e-004	-1.412308e-004	1.818718e-002
5.139854282512005e-004	-1.389878e-004	1.879999e-002
5.145653158014779e-004	-1.396724e-004	2.001861e-002
5.151630808998284e-004	-1.413064e-004	2.020598e-002
5.158844451145523e-004	-1.394865e-004	2.051615e-002
5.165486426633132e-004	-1.394952e-004	2.179241e-002
5.171501766441443e-004	-1.411548e-004	2.212973e-002
5.178001660902560e-004	-1.398702e-004	2.222539e-002
5.184522718519611e-004	-1.391692e-004	2.345935e-002
5.190596594868755e-004	-1.409987e-004	2.400313e-002
5.196420715080744e-004	-1.403362e-004	2.391450e-002
5.202437748547525e-004	-1.389912e-004	2.485629e-002
5.209478428957747e-004	-1.406947e-004	2.580003e-002
5.215499826706980e-004	-1.405572e-004	2.576695e-002
5.221693682187212e-004	-1.390531e-004	2.658160e-002
5.228449850398684e-004	-1.402473e-004	2.762388e-002
5.235181420243294e-004	-1.404954e-004	2.762470e-002
5.241246962726669e-004	-1.390425e-004	2.835511e-002
5.247456757763980e-004	-1.400102e-004	2.944021e-002
5.253735412938306e-004	-1.407198e-004	2.945238e-002
5.259919996357894e-004	-1.390981e-004	3.002250e-002
5.265692244950744e-004	-1.396228e-004	3.116198e-002
5.271643321846020e-004	-1.407563e-004	3.136564e-002
5.278667847277939e-004	-1.392783e-004	3.178088e-002
5.284700903671218e-004	-1.394537e-004	3.287043e-002
5.290935380872342e-004	-1.405813e-004	3.323431e-002
5.298761209873147e-004	-1.394981e-004	3.366243e-002
5.306111491310908e-004	-1.396864e-004	3.479986e-002
5.312805726717877e-004	-1.404718e-004	3.518138e-002
5.320805269457409e-004	-1.394015e-004	3.574258e-002
5.327749551045857e-004	-1.396795e-004	3.674897e-002
5.334930309714772e-004	-1.403365e-004	3.717787e-002
5.343997743697301e-004	-1.395200e-004	3.794972e-002
5.352264518911747e-004	-1.399634e-004	3.890239e-002
5.360468402179420e-004	-1.400229e-004	3.937405e-002
5.369037556819522e-004	-1.395123e-004	4.030174e-002
5.378701873207467e-004	-1.401914e-004	4.119085e-002
5.387237818812816e-004	-1.397463e-004	4.176395e-002
5.395931124442701e-004	-1.395817e-004	4.287045e-002
5.405100805450082e-004	-1.401411e-004	4.357657e-002
5.414874031791050e-004	-1.395437e-004	4.438809e-002
5.423544809682793e-004	-1.398536e-004	4.536930e-002
5.432439906000817e-004	-1.399805e-004	4.593690e-002
5.441838147683257e-004	-1.395593e-004	4.691492e-002
5.451733428472064e-004	-1.401146e-004	4.778841e-002
5.460633208696053e-004	-1.397079e-004	4.841297e-002
5.469716451906865e-004	-1.396455e-004	4.952630e-002
5.478888247825744e-004	-1.400807e-004	5.019639e-002
5.488751736645844e-004	-1.395630e-004	5.104808e-002
5.497819320888654e-004	-1.398941e-004	5.200145e-002
5.507010368836344e-004	-1.398356e-004	5.258609e-002
5.516119643424134e-004	-1.395550e-004	5.357228e-002
5.526119776003213e-004	-1.400380e-004	5.442173e-002
5.536451510447198e-004	-1.395866e-004	5.522034e-002
5.545934755403356e-004	-1.397373e-004	5.628382e-002
5.555362425779620e-004	-1.399560e-004	5.693779e-002
5.565961444493589e-004	-1.395822e-004	5.794569e-002
5.576113951761007e-004	-1.399972e-004	5.882454e-002
5.585542690925197e-004	-1.396944e-004	5.948765e-002
5.595182247873929e-004	-1.396536e-004	6.057899e-002
5.604922614134750e-004	-1.399710e-004	6.126997e-002
5.614832439818291e-004	-1.395757e-004	6.213444e-002
5.624494459725184e-004	-1.398749e-004	6.307516e-002
5.634235398280194e-004	-1.397024e-004	6.371772e-002
5.643477816691957e-004	-1.395452e-004	6.470816e-002
5.653770612707405e-004	-1.399447e-004	6.549221e-002
5.663645720619542e-004	-1.395301e-004	6.629676e-002
5.672820539326460e-004	-1.397431e-004	6.725319e-002
5.682238927305424e-004	-1.398142e-004	6.785265e-002
5.692057637217529e-004	-1.395538e-004	6.883847e-002
5.701486190491367e-004	-1.399156e-004	6.959230e-002
5.710981050136921e-004	-1.395936e-004	7.025961e-002
5.720565329607692e-004	-1.397026e-004	7.129218e-002
5.729731989226077e-004	-1.398818e-004	7.188319e-002
5.739458136461167e-004	-1.395341e-004	7.275316e-002
5.749266155947754e-004	-1.398823e-004	7.360802e-002
5.758517246308263e-004	-1.396411e-004	7.421220e-002
5.767899085081164e-004	-1.396072e-004	7.522959e-002
5.776952473453187e-004	-1.399260e-004	7.582600e-002
5.786171534752537e-004	-1.395049e-004	7.656102e-002
5.795034297321797e-004	-1.397391e-004	7.744240e-002
5.804090570608866e-004	-1.397353e-004	7.797234e-002
5.813298248538689e-004	-1.395315e-004	7.890595e-002
5.822094179631135e-004	-1.398693e-004	7.958950e-002
5.832095425861612e-004	-1.395390e-004	8.026693e-002
5.841466231426492e-004	-1.396713e-004	8.121102e-002
5.850789450373872e-004	-1.398023e-004	8.177461e-002
5.860230088968415e-004	-1.394915e-004	8.262490e-002
5.869433485858814e-004	-1.398008e-004	8.337972e-002
5.878492414522950e-004	-1.395759e-004	8.394001e-002
5.887745000646752e-004	-1.396099e-004	8.491078e-002
5.896290879848346e-004	-1.398683e-004	8.541749e-002
5.905007983395535e-004	-1.394454e-004	8.608632e-002
5.913724328311128e-004	-1.396921e-004	8.692811e-002
5.922580987528780e-004	-1.397038e-004	8.740998e-002
5.931663834586598e-004	-1.395121e-004	8.830693e-002
5.939927129624629e-004	-1.398333e-004	8.891586e-002
5.949464653828289e-004	-1.395268e-004	8.950377e-002
5.958617893498018e-004	-1.396299e-004	9.040102e-002
5.967726875859886e-004	-1.397658e-004	9.090240e-002
5.976383096945808e-004	-1.394460e-004	9.163862e-002
5.985241565791148e-004	-1.397473e-004	9.237967e-002
5.993999737790544e-004	-1.395880e-004	9.286375e-002
6.002975953549447e-004	-1.395432e-004	9.375834e-002
6.011570706454393e-004	-1.398288e-004	9.425314e-002
6.019730061620430e-004	-1.394313e-004	9.481739e-002
6.028039128123336e-004	-1.396197e-004	9.563889e-002
6.036580407331547e-004	-1.397118e-004	9.604459e-002
6.044770949669883e-004	-1.394197e-004	9.679392e-002
6.052500269616033e-004	-1.397621e-004	9.739846e-002
6.060609487823270e-004	-1.395607e-004	9.778299e-002
6.068935209372680e-004	-1.395134e-004	9.863609e-002
6.076790028017458e-004	-1.398421e-004	9.904743e-002
6.084209849167940e-004	-1.394173e-004	9.950650e-002
6.091871187943086e-004	-1.396204e-004	1.003235e-001
6.098896865478578e-004	-1.398159e-004	1.005785e-001
6.106000235202176e-004	-1.393454e-004	1.011383e-001
6.112975283311621e-004	-1.396011e-004	1.018170e-001
6.121312579715895e-004	-1.396230e-004	1.021358e-001
6.128963388344521e-004	-1.393967e-004	1.028817e-001
6.135900510678517e-004	-1.397367e-004	1.033952e-001
6.144400693545817e-004	-1.394668e-004	1.037627e-001
6.152233559927413e-004	-1.395127e-004	1.045763e-001
6.159099801221646e-004	-1.398548e-004	1.048844e-001
6.166156952566237e-004	-1.393970e-004	1.052597e-001
6.173461472082359e-004	-1.395988e-004	1.060604e-001
6.179815279222279e-004	-1.398511e-004	1.062395e-001
6.186292146464628e-004	-1.393231e-004	1.066651e-001
6.192885355558864e-004	-1.396108e-004	1.073817e-001
6.199221483604591e-004	-1.397986e-004	1.075188e-001
6.205600149849123e-004	-1.392713e-004	1.080257e-001
6.211527800032585e-004	-1.395963e-004	1.086437e-001
6.218041855474042e-004	-1.397221e-004	1.087243e-001
6.223687028987257e-004	-1.392517e-004	1.092142e-001
6.229530782649186e-004	-1.395925e-004	1.098373e-001
6.236182445384291e-004	-1.396830e-004	1.099200e-001
6.241803177258630e-004	-1.392473e-004	1.104234e-001
6.247636326161516e-004	-1.396074e-004	1.110223e-001
6.254266126806550e-004	-1.396545e-004	1.110970e-001
6.259789853799636e-004	-1.392395e-004	1.116042e-001
6.265582851724710e-004	-1.396170e-004	1.121853e-001
6.272150765345630e-004	-1.396374e-004	1.122497e-001
6.277584229925173e-004	-1.392310e-004	1.127547e-001
6.283305339060970e-004	-1.396118e-004	1.133233e-001
6.289876848708634e-004	-1.396257e-004	1.133816e-001
6.295263623983373e-004	-1.392252e-004	1.138813e-001
6.300936912253058e-004	-1.396030e-004	1.144418e-001
6.307515648882414e-004	-1.396186e-004	1.144946e-001
6.312847725059776e-004	-1.392196e-004	1.149843e-001
6.318476610671245e-004	-1.395900e-004	1.155415e-001
6.325055657438132e-004	-1.396178e-004	1.155892e-001
6.330345240909995e-004	-1.392157e-004	1.160653e-001
6.335935960114018e-004	-1.395741e-004	1.166225e-001
6.342500819064745e-004	-1.396240e-004	1.166668e-001
6.347770412053126e-004	-1.392135e-004	1.171271e-001
6.353311947379401e-004	-1.395614e-004	1.176857e-001
6.359730175696773e-004	-1.396467e-004	1.177203e-001
6.364951670696957e-004	-1.392127e-004	1.181528e-001
6.370411392252913e-004	-1.395608e-004	1.187243e-001
6.376283819857246e-004	-1.397201e-004	1.187329e-001
6.381358957369141e-004	-1.392219e-004	1.190945e-001
6.386628540589115e-004	-1.395291e-004	1.197143e-001
6.391674075883454e-004	-1.398409e-004	1.197313e-001
6.396811487418483e-004	-1.392840e-004	1.199529e-001
6.401960257452535e-004	-1.394149e-004	1.206309e-001
6.406404535873324e-004	-1.398940e-004	1.207192e-001
6.411207775011461e-004	-1.394942e-004	1.207341e-001
6.416692736477193e-004	-1.392717e-004	1.214159e-001
6.421394400685688e-004	-1.397994e-004	1.216741e-001
6.426322644108914e-004	-1.395671e-004	1.215820e-001
6.430719376406108e-004	-1.391144e-004	1.220546e-001
6.435385822613382e-004	-1.395536e-004	1.225488e-001
6.440899892380359e-004	-1.397105e-004	1.224647e-001
6.445382730119949e-004	-1.391874e-004	1.227676e-001
6.450205540867380e-004	-1.394615e-004	1.234135e-001
6.454533497854706e-004	-1.399040e-004	1.234188e-001
6.459081352172675e-004	-1.394343e-004	1.234515e-001
6.464355543182914e-004	-1.392692e-004	1.241513e-001
6.468599143914800e-004	-1.398045e-004	1.243595e-001
6.473260281055164e-004	-1.395822e-004	1.242082e-001
6.477330757509134e-004	-1.390776e-004	1.246275e-001
6.481711294415988e-004	-1.395031e-004	1.251578e-001
6.486500470789839e-004	-1.398222e-004	1.250891e-001
6.491260812730874e-004	-1.392072e-004	1.252783e-001
6.495652129317363e-004	-1.392884e-004	1.259254e-001
6.499380582559603e-004	-1.398721e-004	1.260343e-001
6.503631591042755e-004	-1.395837e-004	1.258457e-001
6.507546563202122e-004	-1.390489e-004	1.262662e-001
6.511700438736754e-004	-1.394800e-004	1.267908e-001
6.516190909407753e-004	-1.398560e-004	1.267060e-001
6.520675130776583e-004	-1.392511e-004	1.268135e-001
6.524971222209008e-004	-1.391963e-004	1.274696e-001
6.528488656963912e-004	-1.397919e-004	1.276472e-001
6.532680498640070e-004	-1.396838e-004	1.273868e-001
6.536196688923296e-004	-1.390774e-004	1.276619e-001
6.540161188606638e-004	-1.393262e-004	1.283132e-001
6.543703834166066e-004	-1.399249e-004	1.283379e-001
6.547562549985173e-004	-1.395821e-004	1.281424e-001
6.551348912167884e-004	-1.390194e-004	1.285630e-001
6.555294310138309e-004	-1.394509e-004	1.290774e-001
6.559496148148253e-004	-1.398823e-004	1.289831e-001
6.563710708795382e-004	-1.393103e-004	1.290091e-001
6.567928205613358e-004	-1.391093e-004	1.296385e-001
6.571426010788548e-004	-1.397024e-004	1.298837e-001
6.575510952556447e-004	-1.397779e-004	1.296040e-001
6.578771203609597e-004	-1.391680e-004	1.297524e-001
6.582668491936280e-004	-1.391628e-004	1.304490e-001
6.585790312315545e-004	-1.397882e-004	1.306029e-001
6.589504907566570e-004	-1.397915e-004	1.302859e-001
6.592599162526406e-004	-1.391513e-004	1.304272e-001
6.596288407157047e-004	-1.391115e-004	1.311138e-001
6.599284345802306e-004	-1.397436e-004	1.312939e-001
6.602908645335480e-004	-1.398509e-004	1.309678e-001
6.605887884111720e-004	-1.392270e-004	1.310429e-001
6.609548669648464e-004	-1.390340e-004	1.317204e-001
6.612461580308089e-004	-1.396303e-004	1.319657e-001
6.616114497579698e-004	-1.399148e-004	1.316570e-001
6.619041835246168e-004	-1.393482e-004	1.316549e-001
6.622794516625923e-004	-1.389859e-004	1.322962e-001
6.625815954269593e-004	-1.395365e-004	1.326056e-001
6.629538897119251e-004	-1.399254e-004	1.323524e-001
6.632705923101157e-004	-1.393728e-004	1.323199e-001
6.636473804392752e-004	-1.389796e-004	1.329145e-001
6.639653489887876e-004	-1.395279e-004	1.332462e-001
6.643391488939322e-004	-1.399175e-004	1.330121e-001
6.646618888841771e-004	-1.393657e-004	1.329778e-001
6.650389725857123e-004	-1.389768e-004	1.335630e-001
6.653563372098656e-004	-1.395228e-004	1.338911e-001
6.657284656813726e-004	-1.399158e-004	1.336581e-001
6.660490938410774e-004	-1.393690e-004	1.336175e-001
6.664233906022592e-004	-1.389666e-004	1.341904e-001
6.667398615378467e-004	-1.395052e-004	1.345243e-001
6.671088767321491e-004	-1.399180e-004	1.343014e-001
6.674315158737308e-004	-1.393795e-004	1.342469e-001
6.678030297538576e-004	-1.389567e-004	1.347982e-001
6.681229226884909e-004	-1.394866e-004	1.351445e-001
6.684899180695079e-004	-1.399168e-004	1.349365e-001
6.688173470826605e-004	-1.393856e-004	1.348700e-001
6.691869560929909e-004	-1.389498e-004	1.354007e-001
6.695105923334005e-004	-1.394726e-004	1.357562e-001
6.698760708149100e-004	-1.399137e-004	1.355601e-001
6.702071421519120e-004	-1.393887e-004	1.354842e-001
6.705748348237864e-004	-1.389436e-004	1.359977e-001
6.709008862144034e-004	-1.394597e-004	1.363597e-001
6.712644730224282e-004	-1.399107e-004	1.361736e-001
6.715984627996978e-004	-1.393922e-004	1.360885e-001
6.719638868427007e-004	-1.389374e-004	1.365845e-001
6.722924384249049e-004	-1.394462e-004	1.369537e-001
6.726539600434494e-004	-1.399071e-004	1.367783e-001
6.729914999742205e-004	-1.393954e-004	1.366834e-001
6.733546231379194e-004	-1.389321e-004	1.371616e-001
6.736862197729395e-004	-1.394335e-004	1.375380e-001
6.740457932704562e-004	-1.398802e-004	1.373891e-001
6.744241887731506e-004	-1.393102e-004	1.372966e-001
6.747656316284164e-004	-1.389045e-004	1.377517e-001
6.750842111067083e-004	-1.394081e-004	1.381209e-001
6.754457615371643e-004	-1.398804e-004	1.379668e-001
6.758154399505993e-004	-1.393316e-004	1.378623e-001
6.761555163738773e-004	-1.388986e-004	1.383016e-001
6.764784964340038e-004	-1.393898e-004	1.386850e-001
6.768359989103099e-004	-1.398887e-004	1.385395e-001
6.771923527435111e-004	-1.393867e-004	1.384140e-001
6.775412217211324e-004	-1.389274e-004	1.388237e-001
6.779064601091560e-004	-1.394518e-004	1.392416e-001
6.782462132598219e-004	-1.398889e-004	1.391110e-001
6.786143591283122e-004	-1.393552e-004	1.389809e-001
6.789570152770249e-004	-1.388968e-004	1.393951e-001
6.792878945223514e-004	-1.393721e-004	1.397888e-001
6.796408958304515e-004	-1.398931e-004	1.396529e-001
6.799817168721801e-004	-1.394444e-004	1.395082e-001
6.803392780616752e-004	-1.389067e-004	1.399063e-001
6.806752825928955e-004	-1.393508e-004	1.403282e-001
6.809980268206561e-004	-1.399082e-004	1.402275e-001
6.813251773364668e-004	-1.395281e-004	1.400024e-001
6.816263412705655e-004	-1.389051e-004	1.402687e-001
6.819407836981960e-004	-1.391121e-004	1.408028e-001
6.822011087954942e-004	-1.397616e-004	1.408775e-001
6.824981920256408e-004	-1.399147e-004	1.405364e-001
6.827229117978960e-004	-1.393931e-004	1.404707e-001
6.830367375800749e-004	-1.388160e-004	1.409308e-001
6.833019538950248e-004	-1.391901e-004	1.413320e-001
6.835840562828345e-004	-1.398800e-004	1.412975e-001
6.838731949018985e-004	-1.397889e-004	1.409828e-001
